!Keysight Technologies,N5241B,MY57181531,A.15.65.19
!Date: Tuesday, December 03, 2024 16:21:49
!Correction: S11(C  2-Port  ) 
!S21(C  2-Port  ) 
!S12(C  2-Port  ) 
!S22(C  2-Port  ) 
!S2P File: Measurements: S11, S21, S12, S22:
# Hz S  dB   R 50
6555000000 -42.566647 103.60161 -1.976509 -53.028023 -1.9580834 -52.691921 -33.481339 -72.992249
6587225000 -42.928196 -56.152027 -0.83813787 -122.64737 -0.83573765 -122.25435 -31.474569 24.252935
6619450000 -35.277882 -54.871567 -0.50785857 -165.46091 -0.50066185 -165.25165 -41.145718 -110.94019
6651675000 -56.325893 81.882027 -0.33832377 161.49812 -0.3287445 161.69431 -45.332607 -171.19789
6683900000 -35.927147 113.83084 -0.26036724 133.4794 -0.25863573 133.70499 -37.377575 145.72618
6716125000 -45.947445 131.92056 -0.32128248 108.62256 -0.30894312 108.75043 -39.470879 77.048935
6748350000 -50.516674 174.31239 -0.38815415 85.139893 -0.37757546 85.377968 -37.938416 9.7692184
6780575000 -43.793129 29.641832 -0.40566415 62.974209 -0.39353335 63.099323 -37.150028 -80.60289
6812800000 -42.938938 81.725998 -0.33560327 42.513737 -0.31887209 42.721546 -39.833424 -154.08968
6845025000 -39.454369 139.08012 -0.25758716 23.353437 -0.24732116 23.534269 -39.919922 142.16484
6877250000 -37.303963 161.47041 -0.19594303 5.5343261 -0.18612279 5.834033 -39.999966 112.63979
6909475000 -43.420658 -153.87299 -0.21257688 -11.372151 -0.19431795 -11.163084 -43.815884 74.384628
6941700000 -51.062134 134.78046 -0.26334274 -28.202679 -0.25076431 -27.964228 -38.554478 8.3174582
6973925000 -41.308048 123.52829 -0.26513004 -44.31987 -0.26639897 -44.006866 -37.390705 -38.253735
7006150000 -40.839039 141.59737 -0.25490522 -59.748562 -0.25232506 -59.472759 -39.857334 -105.95864
7038375000 -42.456566 168.2357 -0.18789075 -74.775352 -0.18252826 -74.436195 -40.433842 164.12189
7070600000 -51.091099 -150.39319 -0.15618463 -89.227814 -0.15481927 -88.979805 -38.946365 148.96823
7102825000 -46.526131 -98.010345 -0.16254137 -103.3584 -0.15456845 -103.10001 -47.852749 170.03003
7135050000 -48.854366 166.5721 -0.1988904 -117.24368 -0.19653694 -116.92643 -63.223541 80.74601
7167275000 -41.133003 141.99925 -0.22612421 -130.56236 -0.22959536 -130.43196 -44.441868 34.540001
7199500000 -41.874794 153.96281 -0.22111279 -143.75264 -0.20548615 -143.50563 -42.506836 8.8841267
7231725000 -47.231625 -128.18237 -0.1876983 -156.6824 -0.17001021 -156.41312 -64.378563 -125.56325
7263950000 -49.760948 -83.871437 -0.16405299 -169.33665 -0.15407224 -169.07423 -44.368942 -177.60043
7296175000 -48.343605 164.65994 -0.15918621 178.26305 -0.15895127 178.4574 -54.826157 -92.99408
7328400000 -48.222694 116.4948 -0.17987902 165.95337 -0.17733064 166.16043 -46.293427 -11.901839
7360625000 -47.748112 -174.39998 -0.19764483 154.00807 -0.18686399 154.34206 -49.677738 4.9476366
7392850000 -46.190868 -132.28401 -0.18611684 142.42456 -0.18432555 142.61423 -49.780983 105.81458
7425075000 -47.071835 -96.765305 -0.1713887 130.88005 -0.16540055 131.11189 -64.118828 62.029934
7457300000 -51.745121 -7.1795545 -0.15911721 119.35627 -0.15792327 119.6418 -46.244122 -101.24552
7489525000 -63.259014 149.54041 -0.15760598 107.9264 -0.14841968 108.21429 -41.775623 -96.835358
7521750000 -43.808804 -166.71973 -0.16688518 96.781097 -0.16756769 97.066444 -65.606758 -123.06216
7553975000 -42.227749 -152.59019 -0.16064912 85.945267 -0.15902726 86.11644 -48.516106 78.612251
7586200000 -56.454803 -105.01186 -0.16516903 75.287003 -0.15836112 75.470566 -48.29932 106.49489
7618425000 -48.883137 -13.104577 -0.17083429 64.634079 -0.1598984 64.918243 -52.069443 125.80558
7650650000 -64.688957 -80.056961 -0.16765352 54.11763 -0.15928343 54.322426 -49.906281 167.17015
7682875000 -47.141396 174.29951 -0.16565037 43.485855 -0.15654689 43.785934 -51.231663 -8.5778894
7715100000 -45.354294 171.21429 -0.15473154 33.136173 -0.15358466 33.404377 -43.868172 -25.201427
7747325000 -54.86319 -50.280598 -0.15791388 22.960796 -0.14323944 23.276686 -49.051003 -57.579205
7779550000 -42.335484 -18.025063 -0.15088657 12.959362 -0.15016139 13.252916 -73.588875 -175.03699
7811775000 -54.031567 26.493452 -0.15629169 3.0656509 -0.15196222 3.2808671 -51.912415 31.518578
7844000000 -50.112999 112.60709 -0.16194108 -6.8376474 -0.1553279 -6.6204863 -72.459206 -136.1432
7876225000 -55.628044 -162.50836 -0.16354091 -16.773823 -0.15821427 -16.483122 -47.309441 -77.027702
7908450000 -51.476749 -60.813923 -0.15631585 -26.419487 -0.1459965 -26.204752 -65.819328 168.83734
7940675000 -46.263157 -57.588043 -0.14840762 -36.094021 -0.14745791 -35.895378 -52.789566 5.468801
7972900000 -51.532532 9.4122305 -0.15685767 -45.576588 -0.1459858 -45.359276 -45.417969 -3.3684802
8005125000 -47.697571 114.72571 -0.15651523 -55.046516 -0.15588571 -54.831242 -52.094772 -15.037536
8037350000 -47.54895 156.51521 -0.16192871 -64.493904 -0.15876037 -64.257195 -52.396828 155.67554
8069575000 -48.97065 -131.41486 -0.15647632 -73.817566 -0.15460975 -73.591652 -62.767727 42.162285
8101800000 -52.685871 -50.430622 -0.15356375 -82.968292 -0.15285555 -82.750504 -52.348579 -65.314949
8134025000 -54.365532 43.872845 -0.15550631 -92.255989 -0.15387243 -91.976692 -46.794315 -72.822655
8166250000 -46.921711 85.102348 -0.16017611 -101.32738 -0.15962528 -101.08192 -55.08926 -18.611265
8198475000 -49.926113 133.13924 -0.17004977 -110.40518 -0.16772373 -110.1545 -47.62009 74.816261
8230700000 -53.9711 -157.49731 -0.17017145 -119.34082 -0.16655809 -119.15137 -54.226738 93.639336
8262925000 -54.371914 -87.07576 -0.1723609 -128.24835 -0.15863471 -128.07544 -53.342262 -130.35355
8295150000 -49.814575 36.609093 -0.15989813 -137.12466 -0.15884359 -136.90321 -48.33334 -129.92445
8327375000 -44.058723 74.835434 -0.16514483 -145.93622 -0.16597067 -145.69556 -51.826515 -21.810911
8359600000 -44.421249 87.299622 -0.16920888 -154.71184 -0.176604 -154.48375 -44.22049 7.8990517
8391825000 -84.158257 154.25027 -0.16952461 -163.50002 -0.16207032 -163.1604 -46.885845 23.176962
8424050000 -54.115101 -65.608597 -0.17370351 -172.00957 -0.18103206 -171.80115 -60.367573 -133.87631
8456275000 -47.184414 -16.988333 -0.1805563 179.45859 -0.16952595 179.71062 -52.78775 35.350231
8488500000 -46.685745 16.986185 -0.17247483 170.8735 -0.18444006 171.13177 -46.502068 -33.998959
8520725000 -50.081226 68.460739 -0.1818639 162.36719 -0.1750678 162.60172 -42.038765 -33.379028
8552950000 -50.42194 -162.7 -0.18022116 153.85854 -0.17439894 154.0862 -45.666302 -12.353098
8585175000 -45.33976 -109.72601 -0.18027107 145.48311 -0.17020753 145.67746 -50.51569 89.935516
8617400000 -54.963745 -79.332085 -0.18562755 137.14706 -0.17382987 137.38499 -53.671288 77.317451
8649625000 -50.197071 -19.674698 -0.17358038 128.91081 -0.17556778 129.1028 -60.303143 -85.361984
8681850000 -58.24342 6.5428863 -0.17223701 120.61266 -0.16585234 120.89981 -44.397491 -109.85721
8714075000 -46.969128 -159.64888 -0.18637732 112.37669 -0.17849837 112.53844 -54.972012 -63.449268
8746300000 -42.379501 -152.6844 -0.18507618 104.13781 -0.18301234 104.34586 -48.469662 52.080578
8778525000 -48.049648 -120.72398 -0.18242702 95.928871 -0.17794494 96.160454 -45.049644 48.881165
8810750000 -52.179264 -7.8659201 -0.17658782 87.869583 -0.17626055 88.132034 -60.148331 91.113724
8842975000 -54.726505 1.3495038 -0.1761182 79.794487 -0.17671373 80.025841 -48.53286 162.50214
8875200000 -49.318977 179.73285 -0.18347974 71.71981 -0.18374005 72.013435 -57.030052 155.69026
8907425000 -44.209465 -172.021 -0.19121327 63.694801 -0.18207796 63.989304 -46.568245 -16.166433
8939650000 -54.660015 -122.41322 -0.18501809 55.72279 -0.18315949 55.947384 -43.194523 -35.628571
8971875000 -45.307713 -24.754477 -0.19204003 47.695263 -0.18650864 48.034378 -44.901379 -50.402176
9004100000 -46.301193 2.0913861 -0.18450002 39.962997 -0.17677654 40.066994 -49.760731 6.0190482
9036325000 -52.85675 91.91272 -0.17601766 31.978666 -0.17393953 32.238869 -46.995617 47.696903
9068550000 -48.615757 152.89334 -0.18756288 24.122086 -0.18309198 24.354309 -46.211258 -44.567574
9100775000 -53.83802 -86.495232 -0.18581477 16.393744 -0.18920761 16.593523 -46.188698 -86.538765
9133000000 -44.993088 -41.516602 -0.18562782 8.518259 -0.17786998 8.7971859 -47.883549 -124.9682
9165225000 -44.384258 -32.688057 -0.18415216 0.80621684 -0.1754764 1.0133512 -47.54982 19.064444
9197450000 -49.660774 14.408752 -0.18368874 -6.9618764 -0.18367957 -6.7195783 -43.298119 23.640516
9229675000 -50.095398 168.37578 -0.18763992 -14.66247 -0.1874299 -14.426377 -57.949432 -28.714075
9261900000 -48.19463 -139.61568 -0.19746874 -22.434925 -0.18986741 -22.062044 -53.118443 133.83334
9294125000 -49.281784 -68.697876 -0.19276817 -29.990404 -0.19039422 -29.779694 -50.520737 137.94962
9326350000 -46.467609 -29.856499 -0.1837811 -37.656586 -0.18606874 -37.373344 -45.428009 -13.977032
9358575000 -46.477318 0.6190452 -0.19332485 -45.210991 -0.19024737 -44.97794 -43.07354 -23.636465
9390800000 -57.11776 154.36226 -0.18787643 -52.758724 -0.18001015 -52.512791 -74.456642 -48.901493
9423025000 -43.789379 -174.88556 -0.18514667 -60.357254 -0.1815068 -60.092361 -47.584099 123.17655
9455250000 -45.761402 -124.03947 -0.20733099 -67.876556 -0.18335336 -67.6325 -54.514221 85.80983
9487475000 -49.321846 -44.085396 -0.19425027 -75.344093 -0.18760046 -75.108017 -42.920277 -77.097923
9519700000 -49.994598 20.347294 -0.19423105 -82.905304 -0.19895083 -82.678329 -40.939339 -68.813675
9551925000 -43.560696 95.022934 -0.20253783 -90.313324 -0.19489133 -90.062431 -46.848133 -87.469231
9584150000 -42.580517 125.52802 -0.19472565 -97.694283 -0.18198754 -97.493126 -48.612953 47.915329
9616375000 -50.875618 135.00395 -0.19111533 -105.10661 -0.19357167 -104.87544 -54.852978 0.77627599
9648600000 -47.086948 -11.213992 -0.20964059 -112.49978 -0.19498475 -112.27657 -44.707962 -111.49046
9680825000 -44.601109 1.0470173 -0.20969981 -119.84884 -0.19875111 -119.74042 -40.629086 -129.21423
9713050000 -42.895821 71.322456 -0.20829526 -127.21095 -0.19365504 -126.92772 -55.67448 -97.056175
9745275000 -39.98037 94.176338 -0.20546879 -134.67259 -0.2025739 -134.35832 -44.394344 5.9633713
9777500000 -52.422745 86.383568 -0.19748364 -141.82738 -0.19013405 -141.6125 -43.434299 -16.849142
9809725000 -45.375252 -49.115192 -0.19855709 -149.11755 -0.19766758 -148.92589 -53.652775 -123.08392
9841950000 -42.350929 -55.177181 -0.21164048 -156.34424 -0.20088643 -156.10837 -45.141491 129.60867
9874175000 -45.978729 19.920071 -0.21635854 -163.61903 -0.21530327 -163.46452 -47.454334 42.470921
9906400000 -41.41806 75.691826 -0.20695794 -170.96837 -0.21992373 -170.71704 -45.595779 5.1832452
9938625000 -46.884705 125.49548 -0.22776505 -178.10747 -0.21019754 -177.93387 -42.502048 -86.339012
9970850000 -45.830441 -105.76312 -0.19565544 174.78299 -0.21512592 174.93755 -48.627224 -109.40166
10003075000 -44.554291 -98.645287 -0.20939393 167.55388 -0.18750153 167.85735 -60.483997 108.04069
10035300000 -47.941399 -31.72834 -0.21674791 160.5153 -0.20174567 160.69554 -46.480946 -13.870092
10067525000 -43.837315 38.46209 -0.20891775 153.3911 -0.20844924 153.60272 -45.383469 -56.954727
10099750000 -46.026676 95.471115 -0.22502621 146.21115 -0.21298113 146.34061 -44.434517 -143.85088
10131975000 -45.252209 -176.31984 -0.21595398 139.10054 -0.20690337 139.33852 -49.936771 168.78641
10164200000 -45.458073 -134.10287 -0.20175137 132.03806 -0.19774616 132.19678 -51.804108 0.15005535
10196425000 -57.442463 -85.151321 -0.19309832 124.88451 -0.19643402 125.25146 -44.113289 -27.593315
10228650000 -46.608871 20.812767 -0.18762235 117.90118 -0.18346462 118.12045 -48.501785 -40.584869
10260875000 -52.15126 80.497711 -0.19445276 110.89684 -0.20245537 111.04353 -52.734669 159.4108
10293100000 -48.5919 161.2917 -0.19076477 103.7877 -0.20077229 104.06483 -50.624187 177.05785
10325325000 -48.717785 -165.93579 -0.20504379 96.758713 -0.19799866 96.969887 -46.660328 -53.164772
10357550000 -56.190125 -49.837296 -0.18514533 89.705635 -0.18556947 90.0103 -40.894989 -57.587162
10389775000 -43.62923 25.11965 -0.18507671 82.745331 -0.17335945 83.036324 -44.953854 -48.194508
10422000000 -45.42001 49.630524 -0.18082561 75.875923 -0.18502107 76.144539 -54.203838 24.039576
10454225000 -53.047081 68.598656 -0.18284979 68.756027 -0.17673422 69.039719 -44.402504 91.417625
10486450000 -55.531738 -22.458252 -0.19528556 61.88747 -0.18905511 62.065876 -50.313744 -128.57552
10518675000 -46.569405 -41.059517 -0.19209413 54.940956 -0.1778198 55.192673 -47.175964 -125.82987
10550900000 -42.336536 -3.4021327 -0.17982937 48.015602 -0.1851221 48.188732 -45.388458 -120.58789
10583125000 -41.896389 34.778915 -0.17186427 41.068092 -0.17358415 41.377995 -47.512959 44.279812
10615350000 -49.968472 69.27562 -0.18251961 34.294056 -0.17688143 34.431862 -40.994751 58.704487
10647575000 -54.085808 -92.551895 -0.17204174 27.33396 -0.18192734 27.662006 -50.572296 83.963158
10679800000 -47.349796 -71.986725 -0.18179615 20.379284 -0.17955446 20.690165 -53.086533 -160.1488
10712025000 -45.855228 -42.826778 -0.18649837 13.488494 -0.19375978 13.873994 -49.409126 176.90964
10744250000 -40.701714 25.391655 -0.18187578 6.6815424 -0.16585611 6.9882402 -45.532104 -9.7148876
10776475000 -40.550385 54.461357 -0.18045025 -0.033834901 -0.17501174 0.17333445 -41.143353 2.767868
10808700000 -56.360264 150.79456 -0.17401712 -6.8800716 -0.16749263 -6.5645304 -43.45462 -38.816868
10840925000 -44.459152 -88.572205 -0.17896286 -13.677313 -0.17650129 -13.485571 -46.123352 -106.1389
10873150000 -43.644585 -59.056721 -0.17023768 -20.570803 -0.16256692 -20.228586 -52.139484 -96.835739
10905375000 -41.08168 -3.6043348 -0.16819111 -27.348507 -0.15537861 -27.090391 -44.054176 -65.378937
10937600000 -40.997623 41.087482 -0.15821454 -34.062241 -0.16289289 -33.823151 -40.210976 -50.27459
10969825000 -48.089905 104.1262 -0.16459981 -40.898777 -0.1487146 -40.597481 -42.08564 -118.15259
11002050000 -44.736839 -173.59581 -0.16489826 -47.597366 -0.16064428 -47.365498 -42.740837 172.47856
11034275000 -49.371296 -55.932323 -0.15455772 -54.415222 -0.1478398 -54.056042 -45.056904 144.58586
11066500000 -39.281456 8.4769621 -0.13800041 -61.204227 -0.15188046 -60.960491 -51.212086 143.77623
11098725000 -37.927052 27.775047 -0.14785105 -68.023987 -0.13742648 -67.596931 -50.156952 -155.2169
11130950000 -40.343025 62.435219 -0.14380853 -74.700218 -0.1405146 -74.442337 -46.115112 121.91449
11163175000 -41.980862 111.9114 -0.14615525 -81.425735 -0.15226758 -81.094162 -40.340366 94.587486
11195400000 -55.897942 115.37189 -0.16314769 -88.261688 -0.1271356 -87.935959 -38.444656 28.629881
11227625000 -37.534733 -5.0103745 -0.13316515 -94.982094 -0.14591806 -94.734489 -38.373646 6.4583249
11259850000 -35.688267 15.756999 -0.13875109 -101.84204 -0.12596135 -101.43317 -40.981163 -22.432709
11292075000 -37.904709 43.333279 -0.13644256 -108.61845 -0.14072235 -108.28283 -41.837887 -13.354045
11324300000 -39.117203 77.05632 -0.14896695 -115.37486 -0.1478698 -115.04729 -43.385357 -20.277744
11356525000 -46.927696 92.730141 -0.18724559 -122.05969 -0.18417917 -121.92071 -37.690754 -68.748566
11388750000 -39.206676 -30.689348 -0.22177309 -128.83583 -0.2248809 -128.47481 -36.309132 -91.77932
11420975000 -35.021481 -11.02523 -0.25106931 -135.47488 -0.23181334 -135.22635 -37.493565 -129.01323
11453200000 -35.849667 20.727659 -0.27393842 -142.16168 -0.29049373 -141.81909 -44.61776 175.31885
11485425000 -40.026978 57.949314 -0.31810662 -148.664 -0.30103111 -148.38747 -41.085869 128.05482
11517650000 -46.23925 71.514313 -0.3549535 -154.96054 -0.37525499 -154.72614 -43.138165 176.82457
11549875000 -44.86462 -71.629723 -0.39178109 -161.3822 -0.38907617 -160.90173 -42.75174 -171.00052
11582100000 -37.149853 -41.628071 -0.41099966 -167.46036 -0.4012365 -167.21574 -44.669994 135.35158
11614325000 -35.770935 -1.7495923 -0.38310471 -173.65823 -0.38598275 -173.28932 -40.198521 41.296494
11646550000 -37.277592 62.548382 -0.3108733 179.8105 -0.29817581 -179.89232 -47.73053 30.624605
11678775000 -39.661678 49.732651 -0.33603144 173.66267 -0.34341073 173.96068 -39.093979 46.756069
11711000000 -52.050373 -55.400734 -0.27098101 167.33984 -0.25461644 167.56313 -45.532349 -8.5540667
11743225000 -39.99332 -106.11473 -0.21551734 160.24461 -0.2233853 160.62787 -48.739136 40.721085
11775450000 -36.878586 -12.841233 -0.22539754 154.21233 -0.19876981 154.56828 -36.472263 -29.154587
11807675000 -35.317257 21.18222 -0.17146221 147.44969 -0.18049099 147.75795 -36.167931 -44.504604
11839900000 -38.778576 59.283592 -0.17482714 140.5005 -0.16652581 140.97121 -42.176361 -105.27772
11872125000 -45.988621 137.67307 -0.18800212 133.9131 -0.17908803 134.13319 -38.812046 -172.75105
11904350000 -44.651794 -113.33182 -0.18671563 127.32481 -0.19025846 127.71352 -43.148373 -173.63176
11936575000 -39.661797 -50.514465 -0.18870527 120.77319 -0.17144766 121.1308 -47.955994 -131.11751
11968800000 -39.46537 -11.620255 -0.20355475 114.39201 -0.1921753 114.73895 -41.240261 -95.273888
12001025000 -39.747353 48.93763 -0.20058577 107.84625 -0.18864335 108.1766 -47.136192 152.08488
12033250000 -39.667469 123.59078 -0.21229227 101.28957 -0.2213642 101.63628 -38.523251 118.89324
12065475000 -41.896824 -174.28481 -0.23110047 94.78772 -0.21692532 95.203941 -41.140263 66.796547
12097700000 -41.24966 -80.906784 -0.2101883 88.386986 -0.23141716 88.720901 -47.755211 -21.386309
12129925000 -41.992962 -25.977455 -0.21522166 81.879723 -0.2037072 82.364197 -43.732628 -104.5793
12162150000 -40.506039 34.380093 -0.22541144 75.708237 -0.21708098 75.893211 -52.273365 25.288513
12194375000 -37.538635 83.009911 -0.21649949 69.092041 -0.23315479 69.569199 -42.394497 56.412941
12226600000 -40.274178 137.47614 -0.24611998 62.638981 -0.23225708 63.022026 -43.069569 -9.5853033
12258825000 -42.757469 -116.03952 -0.25085264 56.275997 -0.25938284 56.56575 -41.604641 -69.144249
12291050000 -39.550915 -47.412933 -0.24130709 49.901596 -0.22152247 50.318611 -39.372765 -123.6792
12323275000 -39.988876 11.599517 -0.21773168 43.57333 -0.22624938 43.858021 -57.094723 -173.98566
12355500000 -38.382275 52.159168 -0.23781455 37.190144 -0.22074972 37.627171 -45.882175 21.558779
12387725000 -39.548992 106.44092 -0.23892727 30.745628 -0.23511717 31.043293 -41.457493 -76.377899
12419950000 -39.679649 -166.62166 -0.26333311 24.294369 -0.26885393 24.793148 -41.747398 -121.38062
12452175000 -38.793324 -107.41051 -0.26217672 18.018518 -0.24454257 18.387695 -42.923771 -177.21619
12484400000 -42.615845 -35.34581 -0.22761829 11.646269 -0.23279536 12.062548 -45.759987 92.032463
12516625000 -39.090023 41.431923 -0.22150558 5.3546448 -0.20993344 5.7655554 -43.253757 15.675027
12548850000 -40.675533 66.482979 -0.23715973 -1.0168198 -0.23648287 -0.68744409 -46.235489 -141.92638
12581075000 -39.001396 161.59233 -0.26570734 -7.5357113 -0.24534339 -7.0540242 -40.548607 -161.78662
12613300000 -37.250408 -148.63913 -0.27222741 -13.829171 -0.26244482 -13.48965 -45.839764 103.30528
12645525000 -41.266235 -90.214485 -0.26110089 -20.153442 -0.23927982 -19.65303 -42.097588 21.234938
12677750000 -40.372334 0.93116099 -0.22377421 -26.33639 -0.21383408 -25.994686 -41.946407 -6.4738097
12709975000 -41.065258 72.227608 -0.23673299 -32.644886 -0.22503875 -32.262928 -48.945873 152.51804
12742200000 -39.766342 148.57982 -0.26503649 -38.906799 -0.24985886 -38.721584 -39.291527 152.60799
12774425000 -37.48476 -171.45856 -0.29101685 -45.372616 -0.29842842 -45.020943 -46.494537 51.181393
12806650000 -37.973381 -126.16212 -0.29842064 -51.70134 -0.2682068 -51.302532 -41.873241 -15.62338
12838875000 -39.368172 -57.690266 -0.23474692 -57.936424 -0.23297533 -57.654419 -38.026886 -40.452579
12871100000 -41.434376 42.307724 -0.20707142 -64.313492 -0.20894383 -63.865849 -57.706524 77.416405
12903325000 -38.199375 120.62466 -0.24349876 -70.485252 -0.23037952 -70.16407 -41.377636 104.69557
12935550000 -38.627888 165.32903 -0.28351155 -76.780952 -0.27986673 -76.342148 -45.079376 -15.948935
12967775000 -39.457905 -150.09546 -0.30777091 -83.265915 -0.28771421 -82.770363 -39.207584 -56.690598
