!Keysight Technologies,N5241B,MY57181531,A.15.65.19
!Date: Tuesday, December 03, 2024 16:32:31
!Correction: S11(C  2-Port  ) 
!S21(C  2-Port  ) 
!S12(C  2-Port  ) 
!S22(C  2-Port  ) 
!S2P File: Measurements: S11, S21, S12, S22:
# Hz S  dB   R 50
6555000000 -10.782159 -137.43938 -2.5611677 -137.16624 -2.5331089 -136.90781 -14.567498 -123.65836
6587225000 -27.880873 -167.98457 -1.1874684 95.124023 -1.1937358 95.436249 -18.748606 165.20435
6619450000 -35.260506 -149.45287 -0.75598526 10.357354 -0.74854445 10.648863 -30.823118 -72.781319
6651675000 -25.493492 -144.93005 -0.54801112 -56.989815 -0.5386287 -56.660305 -29.280237 -122.87288
6683900000 -24.136015 154.67433 -0.4939796 -114.66357 -0.50971335 -114.30603 -41.84013 143.57709
6716125000 -26.59667 99.419121 -0.55694216 -166.13109 -0.54506189 -165.80397 -30.626875 -52.4702
6748350000 -30.95121 9.4590492 -0.58673209 145.81416 -0.57581812 146.24794 -29.071844 -75.057472
6780575000 -39.593666 -77.496857 -0.57229322 101.01991 -0.55817002 101.25845 -27.909765 -75.950989
6812800000 -36.415634 130.52771 -0.46563822 59.356651 -0.44953883 59.65313 -32.467113 -126.89076
6845025000 -33.051914 109.94979 -0.36771604 20.041742 -0.35757345 20.320541 -35.923378 86.002487
6877250000 -21.866503 39.888531 -0.33656985 -16.361885 -0.33087152 -16.010513 -23.162283 -3.2366757
6909475000 -19.369902 -178.21342 -0.33033744 -52.175274 -0.3251324 -51.777351 -31.68725 -158.31447
6941700000 -22.615961 134.27054 -0.38442019 -86.491776 -0.36845481 -86.127945 -36.123775 -112.06398
6973925000 -24.509209 94.711807 -0.38734522 -119.81213 -0.38671303 -119.28184 -38.808495 117.34234
7006150000 -29.924234 77.398781 -0.35091484 -151.74376 -0.35293987 -151.41261 -29.16114 60.561787
7038375000 -41.103489 103.07182 -0.27581617 177.31978 -0.27185893 177.70346 -31.309464 28.320761
7070600000 -41.919769 159.04375 -0.24596438 147.41431 -0.24491914 147.73039 -33.922817 -25.137882
7102825000 -43.200226 138.31461 -0.2717523 118.27749 -0.25603828 118.67635 -31.022467 -59.748878
7135050000 -34.505493 110.7536 -0.31586194 89.762108 -0.31287196 90.213737 -29.781664 -72.358002
7167275000 -31.491283 86.426811 -0.35917726 62.035221 -0.35564542 62.28125 -34.394341 -74.386894
7199500000 -34.969864 35.9687 -0.3396067 34.82637 -0.3308816 35.226414 -39.063599 -35.082611
7231725000 -34.885269 -49.401897 -0.30141622 8.1528864 -0.29428101 8.5061293 -37.882874 11.251944
7263950000 -33.20739 -54.419712 -0.25615522 -17.948668 -0.25360945 -17.512333 -29.408981 22.3029
7296175000 -10.740083 -167.31549 -0.65159076 -45.408169 -0.65906155 -45.057632 -12.275579 -118.06026
7328400000 -24.631603 132.12413 -0.28661576 -68.863564 -0.28185171 -68.543198 -29.175388 -116.88868
7360625000 -27.570822 98.642487 -0.31352493 -93.571198 -0.30193704 -93.15274 -38.743763 -130.5372
7392850000 -30.320116 52.146416 -0.30214795 -117.8159 -0.30222371 -117.50117 -35.70509 162.81929
7425075000 -31.409304 13.275072 -0.27377465 -141.84373 -0.27285445 -141.44327 -31.458733 147.35622
7457300000 -37.574677 -11.258923 -0.26482269 -165.55418 -0.2659198 -165.18066 -35.745949 118.96194
7489525000 -46.884762 170.19672 -0.25311717 171.01839 -0.24771385 171.39314 -36.504654 1.3114771
7521750000 -34.304379 167.3228 -0.27283406 147.93217 -0.26203784 148.37003 -31.035643 -43.239635
7553975000 -31.170155 146.51492 -0.27845091 125.39143 -0.27383089 125.69747 -30.080534 -62.6954
7586200000 -29.30101 107.03891 -0.2977924 103.18267 -0.28963113 103.44397 -30.14266 -91.115738
7618425000 -28.229895 69.383667 -0.31619239 81.026978 -0.30554324 81.438583 -30.395842 -124.971
7650650000 -29.144455 46.855774 -0.31721455 59.210972 -0.31106657 59.504547 -29.696741 -153.93599
7682875000 -31.488644 35.421726 -0.32935435 37.362617 -0.32460684 37.834526 -35.624855 -179.47591
7715100000 -33.173645 12.85973 -0.34616584 16.041479 -0.34968972 16.430296 -42.91711 24.532495
7747325000 -34.976761 -33.504307 -0.39198393 -4.8837438 -0.37808996 -4.435339 -32.717381 -17.192083
7779550000 -40.037312 -96.632301 -0.41364285 -25.457283 -0.41962051 -25.002737 -29.758238 -44.279564
7811775000 -26.070175 105.61689 -0.43832636 -45.733875 -0.43190658 -45.327168 -25.12277 -26.233561
7844000000 -34.740635 -63.347347 -0.38392019 -65.834557 -0.38067701 -65.533348 -22.599918 -124.65386
7876225000 -40.930363 33.738327 -0.35982123 -86.099571 -0.35322207 -85.707893 -25.937094 -131.66376
7908450000 -33.665264 30.740297 -0.31654292 -106.16688 -0.30989739 -105.90531 -30.057531 -121.25712
7940675000 -30.470335 15.893557 -0.28331977 -126.15115 -0.28588387 -125.78774 -37.415848 -114.60915
7972900000 -33.4897 0.71147257 -0.27178675 -145.94951 -0.26736102 -145.6265 -48.61174 -1.6971447
8005125000 -41.447102 -42.870537 -0.26532707 -165.59138 -0.25956365 -165.27505 -38.437988 19.380892
8037350000 -41.317978 -155.7018 -0.26451731 174.83392 -0.25844479 175.17424 -37.900002 -18.573221
8069575000 -40.092484 169.78757 -0.2628144 155.45789 -0.26118171 155.80156 -37.530746 -49.254822
8101800000 -39.224888 136.29526 -0.25436282 136.32739 -0.2528277 136.6767 -32.519482 -69.53788
8134025000 -34.950184 115.74834 -0.25037023 117.15945 -0.25859946 117.55735 -29.621975 -73.853325
8166250000 -30.646502 96.95932 -0.2636362 98.295921 -0.26411676 98.701691 -29.885836 -86.369896
8198475000 -30.096197 79.449272 -0.26724043 79.604538 -0.26245967 79.932922 -31.757597 -114.12906
8230700000 -31.262547 59.656689 -0.2673054 60.93903 -0.2588267 61.275349 -31.949871 -144.26122
8262925000 -33.262997 44.228996 -0.25923526 42.416721 -0.2531597 42.7868 -32.050888 -162.02098
8295150000 -33.080688 39.8694 -0.25315475 23.971285 -0.24851499 24.360819 -35.158421 176.32047
8327375000 -35.578915 43.748657 -0.25675991 5.6686993 -0.24557211 5.9863758 -47.356537 62.315403
8359600000 -38.721565 117.78931 -0.26089418 -12.57085 -0.26183027 -12.192096 -33.411102 -6.0509858
8391825000 -29.759109 148.53464 -0.26856562 -30.76556 -0.26995179 -30.360884 -29.520432 -24.575716
8424050000 -25.630037 124.56207 -0.2833778 -48.665657 -0.28431988 -48.320816 -30.127422 -23.182083
8456275000 -23.562904 -13.972806 -0.28735247 -65.87677 -0.2760542 -65.494331 -10.790693 -56.041794
8488500000 -26.842369 106.17116 -0.31313515 -84.300735 -0.32110882 -83.911026 -22.030033 -102.64824
8520725000 -27.984898 83.038773 -0.31854838 -101.98634 -0.31549197 -101.634 -26.17285 -114.48281
8552950000 -28.31942 63.456657 -0.32921082 -119.61793 -0.32074231 -119.26393 -31.395168 -141.87981
8585175000 -28.900799 47.689281 -0.34868822 -137.0563 -0.34954131 -136.69868 -31.674915 152.51492
8617400000 -29.553398 42.457527 -0.38129222 -154.39444 -0.36679178 -153.99019 -27.487888 115.74953
8649625000 -28.337465 48.298889 -0.39906284 -171.53876 -0.40122232 -171.19585 -28.450592 85.568687
8681850000 -28.329376 54.096062 -0.42604473 171.27374 -0.42334378 171.72717 -29.191738 26.507345
8714075000 -29.592991 54.792015 -0.44946992 154.31235 -0.44994509 154.64519 -27.397707 -19.097832
8746300000 -31.210436 59.547611 -0.45411113 137.32001 -0.4534772 137.72725 -25.900166 -47.00032
8778525000 -28.970594 62.626354 -0.46636558 120.31613 -0.46289006 120.77561 -26.170904 -70.558228
8810750000 -26.573755 58.211594 -0.46446443 103.64219 -0.46089083 104.03292 -25.919699 -101.50557
8842975000 -25.797867 51.584106 -0.46109292 86.799973 -0.46612349 87.203087 -25.287952 -132.90456
8875200000 -25.953114 51.195271 -0.49345729 69.959427 -0.49067584 70.405563 -25.035328 -157.61943
8907425000 -25.489374 49.291332 -0.5256778 53.231285 -0.51829749 53.665077 -26.448019 173.40669
8939650000 -24.36952 39.470539 -0.54967189 36.588764 -0.5501138 36.979568 -27.473183 132.36572
8971875000 -24.081665 31.378483 -0.6139763 19.94949 -0.59972489 20.440872 -25.868887 83.952065
9004100000 -23.926495 30.812578 -0.66320217 3.6974282 -0.66219777 3.9578962 -23.319996 44.134853
9036325000 -23.741236 32.717678 -0.73487097 -12.593848 -0.7365551 -12.175322 -22.128645 9.7081814
9068550000 -23.675825 27.359257 -0.81575543 -28.572826 -0.79729182 -28.246107 -22.230442 -27.467129
9100775000 -24.403343 10.250111 -0.88193822 -44.396553 -0.89155644 -44.025112 -22.086523 -63.897057
9133000000 -25.134193 -10.371963 -0.92760187 -59.944473 -0.91962206 -59.53915 -22.507694 -104.83631
9165225000 -23.809011 -87.434669 -0.93364805 -75.48848 -0.93347442 -75.117493 -22.284756 -139.85927
9197450000 -24.791853 14.253394 -0.89311773 -90.671875 -0.90016949 -90.338768 -23.076784 165.27397
9229675000 -23.974968 2.5022027 -0.84798986 -106.2206 -0.85575706 -105.78921 -22.238102 135.47646
9261900000 -22.603289 -7.6599188 -0.7891286 -121.85313 -0.78308761 -121.34852 -23.937431 112.72315
9294125000 -22.654123 -13.832636 -0.73547226 -137.46344 -0.72307581 -137.13306 -27.094517 80.824532
9326350000 -23.347805 -16.771963 -0.67486739 -153.28439 -0.67459828 -152.84021 -27.267941 35.056068
9358575000 -25.349627 -19.375542 -0.63186502 -168.96191 -0.62093395 -168.6335 -25.880587 -1.7565534
9390800000 -27.250347 -24.122942 -0.59496021 175.29855 -0.5799455 175.61266 -25.745575 -27.385614
9423025000 -28.860714 -32.200516 -0.55611384 159.45981 -0.55285186 159.85153 -27.465622 -62.338776
9455250000 -28.876068 -27.711708 -0.55095327 143.78633 -0.52574617 144.14735 -28.799551 -98.656769
9487475000 -28.937164 -18.734156 -0.5209198 128.09949 -0.51115364 128.50587 -27.641542 -115.70856
9519700000 -29.569639 -14.540251 -0.50343543 112.38361 -0.51372355 112.71802 -28.510983 -133.07675
9551925000 -31.770685 -0.19920422 -0.50717282 96.821091 -0.50598598 97.194702 -29.112196 -158.94284
9584150000 -31.554798 9.5561972 -0.49998534 81.352974 -0.49754891 81.675995 -30.032028 158.89586
9616375000 -29.532459 6.56673 -0.50273556 65.78183 -0.50622535 66.167694 -29.188137 135.99046
9648600000 -28.050041 2.5253623 -0.53492773 50.30262 -0.51634896 50.708778 -28.857559 117.93578
9680825000 -28.174086 7.3491445 -0.54433709 34.930546 -0.53618723 35.205193 -28.342115 97.969536
9713050000 -27.719437 18.706663 -0.55735594 19.676922 -0.55421209 20.072495 -27.603521 54.964344
9745275000 -27.652468 18.165285 -0.60090935 4.1459312 -0.59171641 4.5464835 -26.532757 23.648933
9777500000 -28.750832 9.7219524 -0.62546682 -10.929511 -0.61598879 -10.598319 -26.709553 -5.7117562
9809725000 -27.500029 8.0496445 -0.67684901 -26.078047 -0.66832072 -25.724461 -26.151945 -31.184994
9841950000 -24.354105 7.6644959 -0.72892517 -41.06995 -0.71993321 -40.668011 -25.097298 -56.206017
9874175000 -22.681793 0.82561231 -0.78082824 -55.912182 -0.79227328 -55.646904 -24.632853 -84.417122
9906400000 -23.213079 -3.8874941 -0.83398139 -70.799484 -0.84910488 -70.35955 -23.905754 -119.47277
9938625000 -20.045166 69.585403 -0.91081303 -85.053261 -0.89421034 -84.738647 -23.306448 177.22749
9970850000 -17.156651 -34.91547 -0.89421606 -99.594788 -0.90311354 -99.3144 -24.155481 170.70422
10003075000 -20.694475 -33.140221 -0.91011137 -113.96263 -0.88819683 -113.49863 -21.352879 117.82273
10035300000 -22.924034 -30.993937 -0.88925141 -128.03145 -0.87919068 -127.72604 -20.695704 85.117073
10067525000 -24.77161 -32.182095 -0.81769836 -142.4707 -0.81991076 -142.07822 -21.2222 55.307365
10099750000 -25.388876 -39.712749 -0.76186496 -157.01677 -0.75270915 -156.76352 -23.035761 11.664117
10131975000 -24.57596 -46.313095 -0.69286382 -171.64075 -0.69242233 -171.19688 -24.22525 -29.821039
10164200000 -23.987371 -51.823997 -0.62303066 173.72087 -0.61812729 174.07063 -24.509686 -64.113907
10196425000 -24.541489 -51.227962 -0.55890453 158.94063 -0.57393372 159.42216 -25.724129 -89.186333
10228650000 -25.153419 -44.356297 -0.51742721 144.29108 -0.51464784 144.63506 -26.869324 -125.82173
10260875000 -25.311907 -48.007961 -0.49256152 129.61517 -0.50688422 129.89458 -25.694693 -170.1438
10293100000 -25.49789 -57.488472 -0.46385893 114.71542 -0.46684489 115.28535 -24.929983 162.72641
10325325000 -25.413706 -66.184631 -0.45322749 100.13274 -0.44498682 100.48471 -26.012167 135.78722
10357550000 -25.724152 -69.947746 -0.40801886 85.458694 -0.41468081 85.899673 -26.927826 106.39524
10389775000 -26.938135 -71.425552 -0.40735465 70.770752 -0.39160547 71.231583 -25.879822 77.611885
10422000000 -28.529888 -82.88308 -0.38733333 56.320702 -0.39317939 56.783634 -25.332747 59.146427
10454225000 -30.116955 -93.92836 -0.37804565 41.637951 -0.37063211 42.029522 -25.849091 44.076408
10486450000 -32.214447 -86.99778 -0.38723204 27.206202 -0.38261563 27.519487 -30.704054 22.555714
10518675000 -35.212105 -64.550461 -0.3705419 12.718658 -0.35506222 13.12527 -32.415054 -11.18189
10550900000 -33.835712 -29.349596 -0.35360986 -1.7913347 -0.35779634 -1.4373055 -34.626949 -36.519962
10583125000 -31.476164 -7.0601239 -0.33897275 -16.261866 -0.34337431 -15.811062 -36.221603 -61.076923
10615350000 -30.381773 -0.75817293 -0.35480434 -30.609709 -0.34517217 -30.273071 -38.945774 -132.88364
10647575000 -29.169571 -21.305538 -0.33846256 -45.022713 -0.35557574 -44.591331 -31.551981 163.22028
10679800000 -25.976992 -44.594128 -0.35607839 -59.556381 -0.35271975 -59.03064 -27.219976 137.22183
10712025000 -23.992018 -62.888557 -0.37764803 -73.857689 -0.37887314 -73.290154 -25.495483 97.065613
10744250000 -24.03438 -73.911232 -0.38662332 -88.113869 -0.36335027 -87.588821 -22.483847 76.030884
10776475000 -13.165449 -52.735275 -0.47195113 -102.47696 -0.46899712 -102.12172 -19.617605 54.74688
10808700000 -21.388672 -121.02945 -0.39212021 -116.4854 -0.37887767 -115.96739 -23.48143 43.442093
10840925000 -25.848928 -132.77469 -0.38925171 -130.7224 -0.38949662 -130.40683 -24.311632 57.12151
10873150000 -33.233574 -150.45665 -0.37859607 -145.07048 -0.3802512 -144.54536 -25.544357 60.974281
10905375000 -34.281204 104.96277 -0.38598275 -159.24695 -0.37389234 -158.87262 -26.14167 47.669952
10937600000 -28.627699 75.171097 -0.38303375 -173.4527 -0.39594445 -173.03035 -26.705641 39.121273
10969825000 -27.884466 48.055645 -0.401546 172.162 -0.38632312 172.61661 -29.091562 27.104925
11002050000 -26.591682 12.006596 -0.42366883 157.85451 -0.4256013 158.28717 -31.298101 53.165318
11034275000 -23.33828 -10.062626 -0.44961002 143.46426 -0.45082977 143.99763 -28.107361 72.434601
11066500000 -21.280859 -28.138052 -0.51229668 129.02087 -0.51847684 129.4613 -25.304277 74.503502
11098725000 -20.484634 -53.535137 -0.60621238 114.54837 -0.59601629 115.19096 -23.267517 67.662674
11130950000 -19.858143 -87.912666 -0.76680058 100.26845 -0.75891733 100.658 -20.754921 57.726452
11163175000 -18.82432 -126.54836 -1.0144413 86.329826 -1.0197781 86.878113 -18.811298 44.139965
11195400000 -18.463387 -168.69914 -1.3400134 73.542213 -1.2984408 73.987503 -17.30913 22.156208
11227625000 -19.345089 134.50101 -1.4614578 62.581963 -1.4768422 62.945282 -17.062603 1.2407897
11259850000 -19.01712 78.686104 -1.2252083 51.19902 -1.2201555 51.850224 -18.552765 -17.657923
11292075000 -20.094978 43.644318 -0.91434807 37.971806 -0.92177236 38.471096 -20.611139 -32.354862
11324300000 -22.267389 10.963226 -0.70530814 23.661064 -0.70944959 24.224463 -22.686775 -44.397999
11356525000 -22.977654 -20.728548 -0.62999928 9.3234367 -0.63811892 9.6462584 -24.873522 -62.85281
11388750000 -23.038441 -42.734653 -0.61760026 -5.0073118 -0.6201874 -4.4853678 -27.526196 -66.197853
11420975000 -23.542311 -47.321117 -0.59500444 -19.08786 -0.59177691 -18.638556 -30.452152 -35.655891
11453200000 -24.837326 -49.28796 -0.59956706 -33.113388 -0.62586355 -32.594238 -29.417906 -14.840502
11485425000 -27.838762 -65.099136 -0.65493053 -46.854656 -0.61959654 -46.403534 -27.904369 -20.247803
11517650000 -26.188705 -104.53929 -0.65672845 -60.39418 -0.67561674 -59.922112 -27.971609 -20.994587
11549875000 -23.544889 -128.73566 -0.66718471 -74.020889 -0.6704821 -73.362701 -25.86125 -37.3237
11582100000 -21.442982 -143.41049 -0.67388898 -87.414131 -0.66025656 -87.001968 -22.548697 -60.819309
11614325000 -18.17244 -162.1506 -0.646671 -101.26494 -0.65871596 -100.70901 -17.979723 -113.90907
11646550000 -6.4535861 123.24202 -0.93309546 -105.72153 -0.93241423 -105.24327 -5.2316113 146.9962
11678775000 -18.5882 -36.824448 -0.67331135 -128.1564 -0.6709156 -127.61856 -14.494195 29.016977
11711000000 -23.899509 -69.036613 -0.51034826 -141.31938 -0.49783686 -140.8685 -22.826889 -13.014486
11743225000 -31.658052 -28.011833 -0.48316956 -155.91217 -0.4934622 -155.35048 -31.744465 -13.687675
11775450000 -29.177794 -25.543764 -0.45122179 -168.97754 -0.42829394 -168.38603 -32.292648 -29.044939
11807675000 -30.501154 9.421114 -0.41190863 177.09207 -0.42227009 177.55019 -30.021254 -0.34815916
11839900000 -31.079338 11.322647 -0.40880945 162.89807 -0.41064173 163.66376 -31.478121 7.629703
11872125000 -29.811895 -18.660028 -0.43176618 149.10143 -0.42568353 149.51424 -36.036682 36.321651
11904350000 -26.574951 -39.252071 -0.44744098 135.25481 -0.45399675 135.9705 -34.587818 61.649643
11936575000 -25.030199 -52.18745 -0.47527447 121.48486 -0.45784193 122.06409 -32.41539 69.307846
11968800000 -25.592203 -72.637489 -0.51998949 107.78115 -0.51362628 108.36549 -31.246883 58.495113
12001025000 -26.373505 -104.59328 -0.57033509 93.986382 -0.55093831 94.486122 -26.539373 63.943623
12033250000 -24.768839 -141.58093 -0.63503385 80.135284 -0.65329105 80.666588 -23.551876 64.800087
12065475000 -23.576344 -165.42342 -0.74585724 66.45047 -0.72985357 67.037292 -22.399641 53.975174
12097700000 -24.020105 160.51617 -0.83543515 52.823429 -0.86223751 53.359364 -21.672407 46.888165
12129925000 -21.859518 110.15089 -1.0014721 39.506512 -0.99177539 40.239437 -20.295765 40.917953
12162150000 -19.457453 78.134926 -1.1902983 27.057369 -1.1569586 27.398926 -19.139719 26.335083
12194375000 -19.290298 46.823002 -1.2478783 14.469399 -1.2723346 15.184148 -18.406578 15.032806
12226600000 -20.061064 10.835571 -1.3078461 2.1171193 -1.2885059 2.745465 -18.979895 2.8322172
12258825000 -20.134174 -26.86813 -1.2779015 -10.136578 -1.286956 -9.6280985 -19.571823 -7.0127449
12291050000 -20.085722 -51.116425 -1.1793741 -22.800137 -1.1657499 -22.076199 -19.533112 -9.9888697
12323275000 -22.166586 -70.840057 -1.0931603 -35.77174 -1.1033746 -35.215218 -19.524746 -19.713509
12355500000 -26.035801 -115.93387 -1.0505327 -48.853142 -1.0387889 -48.178455 -20.305092 -33.998051
12387725000 -25.079901 -171.55705 -1.0009922 -62.140366 -0.99556804 -61.660236 -22.757883 -41.378147
12419950000 -24.532642 155.96019 -0.96179408 -75.480568 -0.97694576 -74.738106 -24.920315 -49.906445
12452175000 -26.835609 129.22783 -0.92071533 -88.73127 -0.89356923 -88.149475 -26.541019 -52.456512
12484400000 -30.099583 88.267265 -0.87277037 -102.14086 -0.88498831 -101.53019 -27.74074 -58.524197
12516625000 -26.226114 32.412937 -0.87504482 -115.55795 -0.84931612 -114.85855 -30.868643 -88.290955
12548850000 -16.450357 -80.328636 -0.93697017 -129.3123 -0.93131834 -128.84372 -24.432205 102.82143
12581075000 -29.849312 -27.049759 -0.94769508 -142.56232 -0.93967414 -141.88478 -30.330854 30.109489
12613300000 -25.673649 -6.1565604 -0.99966216 -155.86658 -0.98151976 -155.24529 -25.979168 24.328535
12645525000 -23.149117 4.219008 -1.0037507 -168.9485 -0.98742777 -168.24478 -21.784605 14.662068
12677750000 -21.631271 6.9153256 -0.98898679 177.98218 -0.96589983 178.49834 -20.459642 5.6812592
12709975000 -21.565001 -4.1193976 -1.0383326 164.67819 -1.021431 165.26018 -22.183586 -1.358404
12742200000 -20.603823 -25.464449 -1.1026478 151.22794 -1.0840012 151.63129 -25.807863 -7.5710068
12774425000 -19.07794 -44.242428 -1.1851248 137.59816 -1.2066156 138.1938 -26.683376 5.843102
12806650000 -17.846645 -61.649235 -1.3145119 124.05688 -1.2849028 124.76129 -24.532516 22.805672
12838875000 -17.470652 -82.32827 -1.4355787 110.94244 -1.4299794 111.35751 -20.953777 24.912157
12871100000 -17.779535 -115.22208 -1.6880381 97.888824 -1.6894289 98.628189 -18.117199 27.792023
12903325000 -16.834345 -154.62582 -2.0241106 86.076759 -2.0085957 86.633934 -16.318508 20.456373
12935550000 -16.548153 168.6738 -2.2916408 75.192833 -2.2894325 75.838371 -15.400712 4.4852071
12967775000 -17.011787 120.14306 -2.3625503 64.887505 -2.3350117 65.563705 -14.428311 -11.229408
