!Keysight Technologies,N5241B,MY57181531,A.15.65.19
!Date: Tuesday, December 03, 2024 16:25:41
!Correction: S11(C  2-Port  ) 
!S21(C  2-Port  ) 
!S12(C  2-Port  ) 
!S22(C  2-Port  ) 
!S2P File: Measurements: S11, S21, S12, S22:
# Hz S  dB   R 50
6555000000 -9.5898046 102.17548 -2.9712982 -9.26052 -2.9481132 -9.1400537 -10.789056 109.76363
6587225000 -15.305092 46.237812 -0.73766702 -56.448109 -0.74434102 -56.047993 -17.663065 72.764633
6619450000 -15.68064 9.4236393 -0.31584969 -83.136841 -0.3112843 -82.907143 -18.863089 85.152809
6651675000 -34.589569 -163.61549 -0.18241811 -101.43314 -0.17564297 -101.12759 -22.673849 18.656786
6683900000 -38.395824 109.36787 -0.16759324 -117.67342 -0.16802992 -117.38872 -28.316328 26.808813
6716125000 -36.92271 108.06071 -0.26410356 -131.78075 -0.24060278 -131.53076 -33.133347 -6.2603178
6748350000 -30.706575 96.510239 -0.3160972 -145.07808 -0.29902682 -144.74292 -34.153442 -26.04851
6780575000 -29.796721 74.696358 -0.33786768 -157.61327 -0.32030228 -157.38072 -39.701454 32.68692
6812800000 -29.269634 79.145386 -0.24233094 -169.07858 -0.23141935 -168.77299 -32.287228 61.688103
6845025000 -27.83189 82.924789 -0.17198411 -179.90292 -0.17446253 -179.61678 -28.398636 64.064072
6877250000 -22.790415 58.388618 -0.16217135 170.43102 -0.15671676 170.7301 -27.171343 39.011997
6909475000 -35.115543 164.36464 -0.1294176 161.05606 -0.12009827 161.31224 -33.530415 102.23374
6941700000 -34.498547 80.078804 -0.18217109 151.71419 -0.17242527 151.98862 -31.886721 51.31776
6973925000 -33.971985 61.037411 -0.18098482 142.73952 -0.18204314 143.11481 -31.609591 36.426266
7006150000 -34.090572 49.505173 -0.16859178 134.14336 -0.16277222 134.44673 -33.390114 30.294588
7038375000 -33.669548 38.063614 -0.099029005 125.82732 -0.098518975 126.16045 -34.556484 48.451836
7070600000 -32.150005 20.359068 -0.079767264 117.83683 -0.076871678 118.11977 -37.688522 43.876648
7102825000 -30.652758 -11.364903 -0.090506934 110.07947 -0.07582473 110.38123 -35.469753 20.036835
7135050000 -31.757116 -31.020077 -0.12229323 102.36817 -0.12085678 102.75017 -33.348679 -0.17694749
7167275000 -34.366348 -52.98127 -0.16160092 95.090302 -0.15211476 95.288345 -32.564659 -15.754061
7199500000 -36.310928 -67.878693 -0.15603918 87.729218 -0.14419545 88.1567 -30.565617 -20.364811
7231725000 -33.505859 -69.173363 -0.12537727 80.635445 -0.12487666 80.973946 -28.121614 -35.841625
7263950000 -25.189289 -88.181808 -0.092085682 73.741814 -0.082884289 74.021683 -22.441004 -38.949451
7296175000 -8.7414846 129.59518 -0.5358144 68.856712 -0.5361008 69.193878 -10.439435 172.715
7328400000 -32.275536 76.028046 -0.11715999 59.899456 -0.11401615 60.298195 -33.132462 105.00724
7360625000 -43.880905 -5.6005602 -0.14686958 53.453964 -0.14133257 53.840183 -33.155735 53.628056
7392850000 -39.985348 -67.995445 -0.15038273 47.012806 -0.15153573 47.31813 -33.544243 76.426003
7425075000 -45.147747 -72.383965 -0.13157006 40.624298 -0.12991554 40.971275 -33.395161 113.15526
7457300000 -49.530602 152.65076 -0.13418996 34.306744 -0.13576172 34.617527 -35.378757 124.58244
7489525000 -40.300629 125.7793 -0.12319619 27.986929 -0.11701719 28.301373 -39.607353 123.70692
7521750000 -42.196465 121.66991 -0.13209572 21.771555 -0.12420136 22.204779 -46.478104 53.74258
7553975000 -49.6465 93.573517 -0.13170266 15.959677 -0.13384451 16.17038 -39.725925 53.41597
7586200000 -51.650711 -12.810424 -0.1551538 10.09973 -0.14795043 10.359277 -35.073551 68.074127
7618425000 -46.074844 50.721375 -0.16022635 4.2379727 -0.15936963 4.531961 -34.93927 86.645134
7650650000 -39.214928 73.290123 -0.16387799 -1.5393196 -0.16230544 -1.2804769 -34.733437 88.878258
7682875000 -38.376488 61.608334 -0.16790858 -7.4317641 -0.15878077 -7.0576415 -39.228699 96.646362
7715100000 -38.835323 10.542664 -0.15729381 -13.079681 -0.15231611 -12.728341 -43.968369 76.31205
7747325000 -38.858856 -38.755203 -0.16321272 -18.530489 -0.15330604 -18.233849 -39.198933 57.194927
7779550000 -38.837555 -69.610451 -0.16861062 -24.013645 -0.17488939 -23.615339 -34.633198 58.035805
7811775000 -33.079472 112.77799 -0.18412732 -29.433506 -0.18103746 -29.129524 -25.527788 40.290989
7844000000 -31.081881 -38.999523 -0.18606928 -34.720673 -0.18287167 -34.405769 -39.824261 -69.601524
7876225000 -36.21154 -35.22023 -0.1937357 -40.159073 -0.18303286 -39.797508 -36.690865 -22.20579
7908450000 -38.169361 -30.150826 -0.17691378 -45.357449 -0.16944116 -45.109657 -34.549446 2.0562685
7940675000 -39.270058 -60.122787 -0.17474468 -50.656872 -0.16944897 -50.324081 -34.697319 14.103061
7972900000 -41.187508 -76.339516 -0.17768525 -55.777657 -0.16066228 -55.476563 -34.560024 28.517385
8005125000 -47.559429 -108.49513 -0.1692428 -60.916622 -0.16412395 -60.652443 -36.888779 38.884254
8037350000 -53.13768 -102.15971 -0.16455841 -66.140686 -0.16528708 -65.831833 -41.80706 36.928513
8069575000 -45.213985 -73.162628 -0.15406151 -71.248062 -0.15903746 -70.968323 -40.401867 5.6903458
8101800000 -43.02293 -80.781334 -0.14660184 -76.210762 -0.147576 -75.955299 -39.697498 4.961657
8134025000 -42.882481 -115.27973 -0.14767295 -81.327461 -0.14675847 -81.050484 -36.928596 6.7846551
8166250000 -48.385117 -149.67886 -0.15384185 -86.372215 -0.14543916 -85.965271 -36.386536 20.023146
8198475000 -56.610863 -176.27951 -0.15497994 -91.309616 -0.1496705 -91.001038 -38.807049 34.978569
8230700000 -56.666847 -105.85036 -0.15436433 -96.227577 -0.14279133 -95.901001 -42.020172 36.386459
8262925000 -44.370872 -106.30772 -0.15085386 -101.11382 -0.14154997 -100.80892 -41.261147 30.512426
8295150000 -40.975807 -136.89885 -0.1433114 -105.95771 -0.13777329 -105.6633 -40.370033 4.9983277
8327375000 -40.326019 -179.86894 -0.14295156 -110.8 -0.13560013 -110.55695 -38.575264 2.7292686
8359600000 -38.189308 115.25893 -0.14333335 -115.63411 -0.14284964 -115.26804 -41.286751 14.473666
8391825000 -33.766975 88.981834 -0.13826524 -120.49642 -0.13767843 -120.10474 -48.293613 29.483496
8424050000 -32.210995 73.424767 -0.14567848 -125.09044 -0.15185043 -124.83804 -34.378723 -0.97801065
8456275000 -22.674686 -104.01401 -0.061742555 -129.77477 -0.051726714 -129.49261 -13.544929 -114.47085
8488500000 -32.912964 127.26344 -0.15520315 -134.55052 -0.15403925 -134.18889 -35.180786 -147.30475
8520725000 -37.151253 144.31902 -0.15062016 -139.19717 -0.15017693 -138.91174 -38.948284 -21.342905
8552950000 -42.373772 164.69017 -0.14985859 -143.8748 -0.14657372 -143.55077 -34.088696 0.99660027
8585175000 -44.696995 164.34209 -0.15045455 -148.42657 -0.14316024 -148.15501 -34.672085 24.968632
8617400000 -43.536892 142.16949 -0.16190803 -152.98685 -0.14949581 -152.69185 -34.858803 70.134758
8649625000 -38.552288 97.440117 -0.15962125 -157.46834 -0.15571801 -157.22229 -38.302624 92.920609
8681850000 -37.608967 94.812599 -0.15551811 -162.05106 -0.14426905 -161.69121 -44.324413 75.417099
8714075000 -39.618649 88.377373 -0.16426778 -166.57281 -0.16028436 -166.28023 -46.154556 -24.661745
8746300000 -44.297863 59.270668 -0.15634698 -171.08179 -0.16381992 -170.81305 -38.995918 -7.577301
8778525000 -47.265652 53.075882 -0.1588154 -175.66003 -0.15773375 -175.30464 -37.666191 26.775084
8810750000 -43.964802 54.178158 -0.16199696 179.97771 -0.15029912 -179.6991 -36.55225 52.192776
8842975000 -38.865288 63.565826 -0.15919562 175.521 -0.15912205 175.85072 -38.637238 60.911396
8875200000 -37.805233 48.981213 -0.18177968 171.08003 -0.17198089 171.48688 -42.644463 62.256313
8907425000 -38.383419 24.074944 -0.17268951 166.72147 -0.17104295 167.06915 -47.023232 3.1183665
8939650000 -37.808277 -12.694876 -0.17372532 162.2867 -0.1739821 162.63232 -41.312912 14.101887
8971875000 -38.788105 -15.001868 -0.18519476 157.90825 -0.17012542 158.33052 -36.504154 32.106953
9004100000 -38.203617 -3.2815654 -0.18104663 153.72549 -0.1782265 153.9203 -34.463631 35.581161
9036325000 -37.020477 6.7090869 -0.17995025 149.33177 -0.17867613 149.66968 -34.652359 35.305592
9068550000 -36.691933 -11.069776 -0.19111587 145.03464 -0.18638678 145.31334 -36.652946 51.319382
9100775000 -33.615784 -62.494701 -0.19060384 140.86508 -0.19467096 141.1575 -35.35508 61.055279
9133000000 -29.277943 -81.226639 -0.1919924 136.52057 -0.18507293 136.87221 -33.191437 77.375183
9165225000 -20.77833 -98.012436 -0.20270517 132.34923 -0.19329643 132.68213 -32.662273 63.46973
9197450000 -35.954849 -121.839 -0.20370016 128.09471 -0.2004692 128.37027 -29.739227 78.48954
9229675000 -39.823544 -107.23415 -0.20413749 123.81831 -0.20075873 124.16679 -33.735912 81.500114
9261900000 -42.785488 -36.767303 -0.21731311 119.5732 -0.2089604 120.02137 -39.925877 41.772537
9294125000 -40.529781 -37.19664 -0.21850826 115.52844 -0.20900387 115.78604 -40.363808 7.5457311
9326350000 -40.363529 -82.732445 -0.2099511 111.26408 -0.21119396 111.67347 -37.442226 0.67868173
9358575000 -36.360413 -106.908 -0.22014704 107.20665 -0.21469617 107.52065 -34.898346 24.320126
9390800000 -35.75449 -117.2911 -0.21611831 103.10241 -0.20847015 103.43533 -34.31472 48.821419
9423025000 -37.898895 -123.57441 -0.20771602 98.903923 -0.20634659 99.265999 -35.780293 51.16526
9455250000 -38.02388 -118.32719 -0.22851177 94.845863 -0.21231864 95.158562 -39.234104 42.897446
9487475000 -38.448402 -130.66768 -0.21482645 90.754623 -0.2108714 91.068642 -42.662598 13.900068
9519700000 -35.893364 -152.64958 -0.21110156 86.564751 -0.21265328 86.877777 -37.106537 6.0302873
9551925000 -36.242531 -169.83141 -0.22819801 82.557465 -0.21654357 82.905357 -36.584824 16.56008
9584150000 -37.181839 -177.43109 -0.21610117 78.565887 -0.21152878 78.838188 -34.867767 29.874077
9616375000 -38.951378 173.38783 -0.21785526 74.457954 -0.2150465 74.773277 -37.068424 39.72707
9648600000 -39.499893 169.25919 -0.23719499 70.395264 -0.21272857 70.754517 -38.835106 44.435886
9680825000 -36.289867 174.28247 -0.2297875 66.341064 -0.21464422 66.592972 -42.479549 14.998597
9713050000 -34.028961 162.43359 -0.22477376 62.374935 -0.21154752 62.803562 -37.794468 10.893905
9745275000 -33.51865 144.91827 -0.22997119 58.194157 -0.22451289 58.541553 -34.983776 18.468105
9777500000 -35.279419 128.41138 -0.22757246 54.360111 -0.22399062 54.614925 -33.029064 28.752932
9809725000 -35.966133 122.98434 -0.23400405 50.342075 -0.23028426 50.60508 -33.370808 41.3988
9841950000 -36.818665 154.16116 -0.24297996 46.344833 -0.2334711 46.690327 -34.791973 53.96072
9874175000 -34.192234 156.34392 -0.24650627 42.401474 -0.24850567 42.585972 -36.210724 24.177902
9906400000 -32.319107 138.02014 -0.23842597 38.216534 -0.25246993 38.591297 -40.130737 9.6493015
9938625000 -23.314707 65.892929 -0.25827199 34.24918 -0.24035545 34.533039 -33.386974 14.328149
9970850000 -31.187868 -120.82829 -0.25457034 30.494493 -0.26794276 30.70532 -43.582687 -14.035572
10003075000 -38.559986 130.14204 -0.2804783 26.444399 -0.25640374 26.858803 -31.752712 49.321568
10035300000 -32.141586 99.058678 -0.29158211 22.607384 -0.27884781 22.86665 -30.292919 53.675327
10067525000 -29.95002 92.069672 -0.29107305 18.62534 -0.2928178 19.00581 -30.403517 57.50251
10099750000 -30.863312 87.290573 -0.31850854 14.702587 -0.30871937 14.92563 -33.933495 37.223457
10131975000 -31.957544 66.661736 -0.33200809 10.752522 -0.32397646 11.149104 -34.24485 26.744118
10164200000 -31.841793 48.893745 -0.34081051 6.9493866 -0.32980147 7.1938462 -32.084408 21.624218
10196425000 -30.848057 38.724796 -0.35409006 3.0660422 -0.36150014 3.3997014 -29.411839 29.332363
10228650000 -29.554989 37.491528 -0.37380207 -0.72066057 -0.37130567 -0.43859404 -28.195065 30.823374
10260875000 -29.146677 30.698071 -0.4085094 -4.4999752 -0.41891262 -4.2226152 -29.453972 28.732225
10293100000 -29.46365 14.563585 -0.43442258 -8.3123493 -0.43866456 -7.8963957 -30.156185 17.898588
10325325000 -28.347525 -4.8458848 -0.4681479 -11.937031 -0.45952094 -11.668516 -30.150354 10.504761
10357550000 -27.414938 -19.676891 -0.46840107 -15.624975 -0.47163716 -15.234611 -28.069368 4.1687174
10389775000 -27.624285 -30.107662 -0.49231073 -19.252964 -0.48091719 -18.853075 -27.048883 1.3957391
10422000000 -28.27931 -39.635712 -0.49658963 -22.572132 -0.50429213 -22.241995 -27.082542 0.10458259
10454225000 -29.092146 -53.889324 -0.49954504 -26.260847 -0.48401359 -25.865011 -27.981174 -12.521028
10486450000 -28.103065 -73.83786 -0.49289933 -29.621929 -0.48667899 -29.372103 -29.359015 -15.399262
10518675000 -27.673065 -82.834892 -0.45758596 -33.178448 -0.44605696 -32.859035 -29.247564 -28.3993
10550900000 -27.957808 -96.16555 -0.40631503 -36.811836 -0.41353121 -36.515358 -28.688442 -27.307131
10583125000 -29.733759 -110.00842 -0.37021771 -40.501804 -0.37351966 -40.093853 -29.213192 -34.727039
10615350000 -33.235939 -141.37489 -0.34350935 -44.123348 -0.34335834 -43.884941 -29.643404 -44.368919
10647575000 -32.473927 -161.99426 -0.30565071 -47.909168 -0.31179327 -47.534279 -31.552067 -51.548344
10679800000 -32.575314 -151.3779 -0.28278074 -51.814709 -0.27461565 -51.405388 -34.883991 -54.222958
10712025000 -32.062901 -133.53632 -0.26277316 -55.64296 -0.26770544 -55.145737 -33.544937 1.7739394
10744250000 -34.499477 -125.58514 -0.25024712 -59.378887 -0.22763574 -58.943066 -31.387085 30.257147
10776475000 -16.137539 -5.5119476 -0.27869543 -63.179825 -0.26540741 -62.900757 -25.062973 48.012096
10808700000 -27.245497 -105.05507 -0.21420038 -66.891525 -0.2022772 -66.479958 -27.603785 -6.8380198
10840925000 -33.44405 -135.84406 -0.21039587 -70.666161 -0.20407699 -70.382545 -35.879734 -47.206673
10873150000 -36.753468 158.06949 -0.19304501 -74.558083 -0.18776479 -74.082718 -34.805431 -97.62355
10905375000 -33.413864 146.89336 -0.188798 -78.229355 -0.18759884 -77.892448 -35.16333 -112.95816
10937600000 -32.953354 152.80005 -0.1824694 -81.953766 -0.18091224 -81.534363 -34.277477 -90.828812
10969825000 -33.685982 155.83881 -0.1712441 -85.722572 -0.15802447 -85.32782 -37.554825 -60.976448
11002050000 -35.266304 133.8222 -0.16924441 -89.393394 -0.16642629 -89.056923 -37.3479 -27.942312
11034275000 -37.227264 102.18569 -0.15588114 -93.204086 -0.14709933 -92.708786 -40.827206 -17.096184
11066500000 -35.675278 84.929817 -0.14677909 -96.929413 -0.15164268 -96.550308 -46.938244 12.142958
11098725000 -35.593983 98.889832 -0.14412937 -100.68647 -0.12849736 -100.15329 -54.416245 -70.989754
11130950000 -36.957336 109.47108 -0.13121466 -104.38178 -0.1269954 -104.06312 -40.628651 -47.176437
11163175000 -37.097698 99.381737 -0.12607141 -108.14021 -0.13260625 -107.70132 -37.302734 -30.247883
11195400000 -36.827118 82.34594 -0.13474719 -111.94649 -0.10453991 -111.50095 -33.718887 -28.477365
11227625000 -36.130341 52.375809 -0.11224426 -115.66311 -0.11258242 -115.32674 -34.590702 -13.031461
11259850000 -35.230324 60.929455 -0.11226524 -119.45508 -0.1044296 -118.9421 -39.407696 -22.115265
11292075000 -37.395653 73.306213 -0.11571512 -123.29638 -0.11417055 -122.83398 -38.910915 -53.094864
11324300000 -37.586647 70.703041 -0.12170459 -127.09885 -0.12326916 -126.64672 -38.220089 -73.693497
11356525000 -36.295425 65.407104 -0.15128645 -130.80792 -0.14496273 -130.55074 -35.219212 -80.032761
11388750000 -35.961914 37.59293 -0.18712884 -134.57346 -0.18541574 -134.17279 -37.375908 -67.280357
11420975000 -34.754871 31.079693 -0.20977017 -138.27386 -0.19143833 -137.90976 -45.285625 -85.511169
11453200000 -36.757248 34.906372 -0.23692544 -141.92229 -0.24544117 -141.48175 -56.421291 92.5681
11485425000 -43.114975 32.108543 -0.28556731 -145.43689 -0.26220942 -145.08131 -42.617329 133.71738
11517650000 -40.77393 54.664585 -0.3058843 -148.82993 -0.32531375 -148.4536 -46.08712 -153.64049
11549875000 -38.864609 85.560883 -0.33548552 -152.33229 -0.33343449 -151.71823 -43.740948 -85.722328
11582100000 -35.522099 99.150635 -0.35833156 -155.51305 -0.34692815 -155.15614 -41.058109 -112.28792
11614325000 -29.092031 116.67488 -0.3490178 -158.82867 -0.35051242 -158.35127 -31.469212 174.9993
11646550000 -14.579929 68.404922 0.032423027 -159.71588 0.043801088 -159.28836 -13.515594 92.131233
11678775000 -26.742994 -65.274071 -0.32498872 -165.62526 -0.33169207 -165.16786 -22.931662 -2.7197607
11711000000 -32.161556 -83.225594 -0.22747017 -169.08337 -0.21827334 -168.75153 -30.776201 -41.36282
11743225000 -38.53508 -22.286671 -0.20860405 -173.3866 -0.22833715 -172.89258 -42.557613 -37.158871
11775450000 -34.817528 -31.831291 -0.19540741 -176.46837 -0.17490287 -176.00674 -40.869499 -67.890633
11807675000 -39.576675 10.789979 -0.16868059 179.69218 -0.17345779 -179.90448 -39.524635 3.1983075
11839900000 -41.989517 55.431801 -0.17240238 175.74023 -0.17156534 176.34865 -37.951088 22.593119
11872125000 -42.425495 39.816059 -0.19349779 172.12384 -0.18863632 172.4528 -38.433823 42.76495
11904350000 -38.415943 10.110429 -0.20391312 168.42784 -0.21230586 169.00011 -36.754868 59.175564
11936575000 -34.078518 -3.8456423 -0.22726449 164.81085 -0.21453761 165.2829 -39.279892 58.170063
11968800000 -32.228951 -6.6681166 -0.26430795 161.40202 -0.24496131 161.82677 -34.524521 29.896738
12001025000 -34.022854 -3.238198 -0.27150235 157.87871 -0.26132825 158.23083 -33.698715 20.132484
12033250000 -35.294781 -26.939615 -0.29561001 154.28125 -0.30504113 154.68411 -32.997581 9.2068462
12065475000 -33.982647 -43.327579 -0.32072642 150.81511 -0.3084459 151.2859 -33.688087 27.426477
12097700000 -32.195858 -50.136269 -0.32340249 147.38995 -0.33429131 147.75786 -34.201447 25.563591
12129925000 -30.304794 -58.125759 -0.32908264 143.92319 -0.32465148 144.47079 -31.838875 6.8815985
12162150000 -31.547083 -63.633656 -0.36719686 140.71193 -0.34345892 141.03963 -31.904768 -2.0751491
12194375000 -32.984367 -96.743767 -0.3424314 137.19336 -0.36625779 137.75774 -30.57616 -15.104265
12226600000 -31.880074 -115.09329 -0.36711574 133.77988 -0.34046978 134.24844 -31.777327 -10.871816
12258825000 -31.231251 -124.4777 -0.35982066 130.44684 -0.37149599 130.88751 -33.80127 -6.0920477
12291050000 -31.17314 -121.41847 -0.34851599 126.9744 -0.32986599 127.56559 -31.137548 -3.1880751
12323275000 -32.183537 -115.84531 -0.32628196 123.59618 -0.34055573 124.0093 -30.730818 -15.753301
12355500000 -33.776806 -146.99025 -0.33635139 120.14906 -0.31699765 120.72936 -30.511505 -36.864773
12387725000 -30.045845 -172.65746 -0.32504982 116.67224 -0.31606379 117.03628 -32.858269 -25.658077
12419950000 -27.77985 178.10101 -0.33104697 113.16232 -0.32646504 113.78445 -35.451878 -18.065821
12452175000 -27.659683 -173.95712 -0.32436973 109.77544 -0.29581755 110.26327 -33.711613 -4.3273129
12484400000 -29.882475 -152.54555 -0.29802057 106.33007 -0.30514026 106.79781 -28.551329 -23.709349
12516625000 -40.608662 -39.221455 -0.30747747 102.92133 -0.28317639 103.45938 -23.959156 -54.837288
12548850000 -12.679319 -54.730938 -0.28579485 99.222252 -0.2842516 99.624596 -28.147064 -173.97716
12581075000 -26.196535 -72.44075 -0.30055395 95.949738 -0.29134238 96.526932 -25.648954 -58.233273
12613300000 -40.375519 -43.271835 -0.31371361 92.514145 -0.30233362 92.984558 -25.729 -63.167183
12645525000 -35.52462 113.98197 -0.30603373 89.141411 -0.29302356 89.698486 -30.757874 -48.881268
12677750000 -31.552164 132.67723 -0.29284993 85.765373 -0.26816633 86.248337 -34.153591 -26.068525
12709975000 -32.694996 148.08345 -0.29305208 82.389206 -0.27489001 82.90226 -34.806919 -35.028252
12742200000 -34.567539 155.95695 -0.28678334 79.001884 -0.2687102 79.348999 -33.632069 -58.033569
12774425000 -39.816021 129.21371 -0.28725538 75.404419 -0.2983222 75.948082 -29.936543 -80.968338
12806650000 -33.770008 88.728447 -0.28637519 71.986458 -0.24991836 72.520523 -30.188808 -70.020828
12838875000 -31.513741 93.070717 -0.24078719 68.674377 -0.23881021 69.072533 -31.682404 -67.602745
12871100000 -31.882853 85.844131 -0.22678255 65.077591 -0.22184637 65.649231 -32.44754 -47.06395
12903325000 -33.801334 87.217735 -0.23774235 61.783424 -0.22336569 62.211002 -34.398682 -48.056709
12935550000 -38.89539 71.279373 -0.2509799 58.319378 -0.24623175 58.869167 -34.310543 -84.057747
12967775000 -34.64064 38.473053 -0.25096399 54.688686 -0.22288962 55.216213 -33.45179 -78.233727
